(1608926660.800530) vcan0 244#0000000116
(1608926660.812774) vcan0 244#00000001D3
(1608926660.826327) vcan0 244#00000001A6
(1608926660.839338) vcan0 244#00000001A3
(1608926660.852786) vcan0 244#00000001B4
(1608926660.866754) vcan0 244#000000018E
(1608926660.879825) vcan0 244#000000015F
(1608926660.892934) vcan0 244#0000000103
(1608926660.904816) vcan0 244#0000000181
(1608926660.920799) vcan0 244#000000015F
(1608926660.934338) vcan0 244#0000000173
(1608926660.946952) vcan0 244#0000000183
(1608926660.962926) vcan0 244#0000000149
(1608926660.970738) vcan0 188#00000000
(1608926660.977487) vcan0 244#00000001E0
(1608926660.989792) vcan0 244#00000001D6
(1608926661.002690) vcan0 244#0000000145
(1608926661.018189) vcan0 244#00000001E9
(1608926661.031261) vcan0 244#00000001F9
(1608926661.042719) vcan0 244#0000000185
(1608926661.053863) vcan0 244#00000001AB
(1608926661.066551) vcan0 244#00000001E0
(1608926661.079120) vcan0 244#0000000157
(1608926661.092179) vcan0 244#00000001BD
(1608926661.105503) vcan0 244#0000000188
(1608926661.120710) vcan0 244#0000000189
(1608926661.133553) vcan0 244#00000001C0
(1608926661.145725) vcan0 244#000000019E
(1608926661.158666) vcan0 244#00000001E3
(1608926661.173070) vcan0 244#0000000123
(1608926661.184569) vcan0 244#00000001FC
(1608926661.195901) vcan0 244#00000001C0
(1608926661.209364) vcan0 244#0000000155
(1608926661.220631) vcan0 244#00000001EB
(1608926661.233510) vcan0 244#0000000182
(1608926661.245964) vcan0 244#0000000195
(1608926661.258201) vcan0 244#000000013B
(1608926661.271293) vcan0 244#000000012B
(1608926661.285172) vcan0 244#0000000191
(1608926661.297488) vcan0 244#000000015A
(1608926661.309332) vcan0 244#0000000148
(1608926661.322653) vcan0 244#000000018E
(1608926661.336724) vcan0 244#00000001EA
(1608926661.348576) vcan0 244#00000001E7
(1608926661.361548) vcan0 244#0000000174
(1608926661.373583) vcan0 244#0000000167
(1608926661.385352) vcan0 244#0000000159
(1608926661.400643) vcan0 244#00000001D5
(1608926661.413712) vcan0 244#00000001ED
(1608926661.426704) vcan0 244#000000016F
(1608926661.440028) vcan0 244#00000001F7
(1608926661.454952) vcan0 244#00000001B4
(1608926661.467504) vcan0 244#00000001EC
(1608926661.474018) vcan0 188#00000000
(1608926661.497162) vcan0 244#00000001EB
(1608926661.509848) vcan0 244#000000010D
(1608926661.522866) vcan0 244#0000000110
(1608926661.535661) vcan0 244#0000000110
(1608926661.548001) vcan0 244#000000016A
(1608926661.563643) vcan0 244#00000001CA
(1608926661.576051) vcan0 244#0000000110
(1608926661.589781) vcan0 244#00000001A9
(1608926661.602554) vcan0 244#00000001E2
(1608926661.614449) vcan0 244#00000001EC
(1608926661.626380) vcan0 244#000000019B
(1608926661.638457) vcan0 244#000000016B
(1608926661.651923) vcan0 244#000000018A
(1608926661.664353) vcan0 244#00000001CD
(1608926661.676152) vcan0 244#00000001C2
(1608926661.688046) vcan0 244#0000000151
(1608926661.700350) vcan0 244#000000017A
(1608926661.711897) vcan0 244#0000000139
(1608926661.723848) vcan0 244#0000000137
(1608926661.736140) vcan0 244#00000001A4
(1608926661.752191) vcan0 244#00000001C0
(1608926661.764946) vcan0 244#000000013A
(1608926661.779049) vcan0 244#0000000133
(1608926661.793280) vcan0 244#0000000142
(1608926661.806615) vcan0 244#00000001B1
(1608926661.819373) vcan0 244#00000001A6
(1608926661.838732) vcan0 244#000000014B
(1608926661.854134) vcan0 244#00000001BC
(1608926661.869750) vcan0 244#00000001B9
(1608926661.887153) vcan0 244#000000019D
(1608926661.899482) vcan0 244#00000001C4
(1608926661.911868) vcan0 244#0000000140
(1608926661.925341) vcan0 244#0000000146
(1608926661.938001) vcan0 244#00000001F0
(1608926661.950637) vcan0 244#000000016E
(1608926661.963780) vcan0 244#00000001CD
(1608926661.978084) vcan0 244#0000000157
(1608926661.978259) vcan0 188#00000000
(1608926661.992728) vcan0 244#000000019A
(1608926662.005645) vcan0 244#0000000192
(1608926662.019680) vcan0 244#0000000155
(1608926662.049874) vcan0 244#0000000122
(1608926662.066645) vcan0 244#00000001CA
(1608926662.077366) vcan0 244#00000001DC
(1608926662.092455) vcan0 244#0000000148
(1608926662.107014) vcan0 244#00000001B3
(1608926662.120549) vcan0 244#000000013B
(1608926662.135345) vcan0 244#0000000136
(1608926662.147581) vcan0 244#00000001C9
(1608926662.159970) vcan0 244#0000000191
(1608926662.300822) vcan0 244#000000018A
(1608926662.314962) vcan0 244#000000018A
(1608926662.327004) vcan0 244#00000001ED
(1608926662.338878) vcan0 244#0000000161
(1608926662.351935) vcan0 244#00000001D9
(1608926662.363852) vcan0 244#000000014B
(1608926662.375649) vcan0 244#00000001AF
(1608926662.390980) vcan0 244#000000019B
(1608926662.405242) vcan0 244#0000000134
(1608926662.420102) vcan0 244#0000000187
(1608926662.432350) vcan0 244#00000001F0
(1608926662.445774) vcan0 244#000000016E
(1608926662.457836) vcan0 244#00000001E8
(1608926662.472519) vcan0 244#000000014D
(1608926662.478577) vcan0 188#00000000
(1608926662.484790) vcan0 244#00000001D0
(1608926662.497708) vcan0 244#0000000175
(1608926662.511038) vcan0 244#0000000157
(1608926662.525266) vcan0 244#00000001B9
(1608926662.539122) vcan0 244#00000001E8
(1608926662.551746) vcan0 244#000000018E
(1608926662.565696) vcan0 244#00000001E8
(1608926662.580454) vcan0 244#000000015A
(1608926662.594779) vcan0 244#00000001CC
(1608926662.606767) vcan0 244#00000001CE
(1608926662.618856) vcan0 244#00000001D3
(1608926662.633226) vcan0 244#0000000130
(1608926662.646379) vcan0 244#000000011D
(1608926662.659207) vcan0 244#000000012A
(1608926662.672728) vcan0 244#0000000103
(1608926662.685353) vcan0 244#0000000102
(1608926662.698549) vcan0 244#0000000157
(1608926662.710804) vcan0 244#00000001AA
(1608926662.724739) vcan0 244#00000001A8
(1608926662.736974) vcan0 244#0000000160
(1608926662.751613) vcan0 244#0000000127
(1608926662.764767) vcan0 244#000000011E
(1608926662.776498) vcan0 244#0000000149
(1608926662.791623) vcan0 244#00000001F2
(1608926662.804769) vcan0 244#0000000155
(1608926662.818963) vcan0 244#000000011A
(1608926662.833047) vcan0 244#0000000115
(1608926662.847319) vcan0 244#0000000162
(1608926662.862998) vcan0 244#0000000012
(1608926662.875880) vcan0 244#0000000024
(1608926662.888347) vcan0 244#0000000036
(1608926662.901322) vcan0 244#0000000048
(1608926662.914148) vcan0 244#000000005A
(1608926662.925055) vcan0 244#000000006C
(1608926662.938107) vcan0 244#000000007E
(1608926662.950328) vcan0 244#0000000090
(1608926662.962629) vcan0 244#00000000A2
(1608926662.977599) vcan0 244#00000000B5
(1608926662.977733) vcan0 188#00000000
(1608926662.992760) vcan0 244#00000000C7
(1608926663.011800) vcan0 244#00000000D9
(1608926663.019913) vcan0 244#00000000EB
(1608926663.036065) vcan0 244#00000000FD
(1608926663.050314) vcan0 244#000000010F
(1608926663.084956) vcan0 244#0000000121
(1608926663.095873) vcan0 244#0000000133
(1608926663.108499) vcan0 244#0000000145
(1608926663.121307) vcan0 244#0000000157
(1608926663.134884) vcan0 244#000000016A
(1608926663.148361) vcan0 244#000000017C
(1608926663.163176) vcan0 244#000000018E
(1608926663.175988) vcan0 244#00000001A0
(1608926663.188715) vcan0 244#00000001B2
(1608926663.202484) vcan0 244#00000001C4
(1608926663.217094) vcan0 244#00000001D6
(1608926663.229824) vcan0 244#00000001E8
(1608926663.241816) vcan0 244#00000001FA
(1608926663.253274) vcan0 244#000000020D
(1608926663.266142) vcan0 244#000000021F
(1608926663.279655) vcan0 244#0000000231
(1608926663.291745) vcan0 244#0000000243
(1608926663.306737) vcan0 244#0000000255
(1608926663.320910) vcan0 244#0000000267
(1608926663.335251) vcan0 244#0000000279
(1608926663.348101) vcan0 244#000000028B
(1608926663.363482) vcan0 244#000000029D
(1608926663.375607) vcan0 244#00000002AF
(1608926663.389393) vcan0 244#00000002C2
(1608926663.402386) vcan0 244#00000002D4
(1608926663.414124) vcan0 244#00000002E6
(1608926663.427578) vcan0 244#00000002F8
(1608926663.441733) vcan0 244#000000030A
(1608926663.456844) vcan0 244#000000031C
(1608926663.469394) vcan0 244#000000032E
(1608926663.482409) vcan0 244#0000000340
(1608926663.483216) vcan0 188#00000000
(1608926663.496846) vcan0 244#0000000352
(1608926663.508878) vcan0 244#0000000365
(1608926663.525275) vcan0 244#0000000377
(1608926663.539046) vcan0 244#0000000389
(1608926663.552461) vcan0 244#000000039B
(1608926663.566030) vcan0 244#00000003AD
(1608926663.578939) vcan0 244#00000003BF
(1608926663.593612) vcan0 244#00000003D1
(1608926663.607026) vcan0 244#00000003E3
(1608926663.618775) vcan0 244#00000003F5
(1608926663.634185) vcan0 244#0000000407
(1608926663.647690) vcan0 244#000000041A
(1608926663.660523) vcan0 244#000000042C
(1608926663.675005) vcan0 244#000000043E
(1608926663.688833) vcan0 244#0000000450
(1608926663.699880) vcan0 244#0000000462
(1608926663.712198) vcan0 244#0000000474
(1608926663.724508) vcan0 244#0000000486
(1608926663.736229) vcan0 244#0000000498
(1608926663.748694) vcan0 244#00000004AA
(1608926663.762446) vcan0 244#00000004BD
(1608926663.776172) vcan0 244#00000004CF
(1608926663.791213) vcan0 244#00000004E1
(1608926663.804979) vcan0 244#00000004F3
(1608926663.821508) vcan0 244#0000000505
(1608926663.834550) vcan0 244#0000000517
(1608926663.848430) vcan0 244#0000000529
(1608926663.861471) vcan0 244#000000053B
(1608926663.876565) vcan0 244#000000054D
(1608926663.889607) vcan0 244#000000055F
(1608926663.902160) vcan0 244#0000000572
(1608926663.916553) vcan0 244#0000000584
(1608926663.929340) vcan0 244#0000000596
(1608926663.942516) vcan0 244#00000005A8
(1608926663.955049) vcan0 244#00000005BA
(1608926663.968577) vcan0 244#00000005CC
(1608926663.981517) vcan0 244#00000005DE
(1608926663.989726) vcan0 188#00000000
(1608926663.998660) vcan0 244#00000005F0
(1608926664.020416) vcan0 244#0000000602
(1608926664.036324) vcan0 244#0000000615
(1608926664.057593) vcan0 244#0000000627
(1608926664.078890) vcan0 244#0000000639
(1608926664.094480) vcan0 244#000000064B
(1608926664.128465) vcan0 244#000000065D
(1608926664.161405) vcan0 244#000000066F
(1608926664.173912) vcan0 244#0000000681
(1608926664.186034) vcan0 244#0000000693
(1608926664.197777) vcan0 244#00000006A5
(1608926664.210633) vcan0 244#00000006B7
(1608926664.222200) vcan0 244#00000006CA
(1608926664.235982) vcan0 244#00000006DC
(1608926664.247990) vcan0 244#00000006EE
(1608926664.264136) vcan0 244#0000000700
(1608926664.277038) vcan0 244#0000000712
(1608926664.290232) vcan0 244#0000000724
(1608926664.304080) vcan0 244#0000000736
(1608926664.319201) vcan0 244#0000000748
(1608926664.332318) vcan0 244#000000075A
(1608926664.346533) vcan0 244#000000076D
(1608926664.359862) vcan0 244#000000077F
(1608926664.371866) vcan0 244#0000000791
(1608926664.384379) vcan0 244#00000007A3
(1608926664.397970) vcan0 244#00000007B5
(1608926664.409742) vcan0 244#00000007C7
(1608926664.421955) vcan0 244#00000007D9
(1608926664.433653) vcan0 244#00000007EB
(1608926664.445598) vcan0 244#00000007FD
(1608926664.457825) vcan0 244#000000080F
(1608926664.469800) vcan0 244#0000000822
(1608926664.484453) vcan0 244#0000000834
(1608926664.491259) vcan0 188#00000000
(1608926664.498188) vcan0 244#0000000846
(1608926664.512142) vcan0 244#0000000858
(1608926664.523899) vcan0 244#000000086A
(1608926664.538077) vcan0 244#000000087C
(1608926664.552689) vcan0 244#000000088E
(1608926664.568050) vcan0 244#00000008A0
(1608926664.582114) vcan0 244#00000008B2
(1608926664.595860) vcan0 244#00000008C5
(1608926664.608634) vcan0 244#00000008D7
(1608926664.623887) vcan0 244#00000008E9
(1608926664.626448) vcan0 19B#000000000000
(1608926664.635745) vcan0 244#00000008FB
(1608926664.647559) vcan0 244#000000090D
(1608926664.661009) vcan0 244#000000091F
(1608926664.673421) vcan0 244#0000000931
(1608926664.686012) vcan0 244#0000000943
(1608926664.698832) vcan0 244#0000000955
(1608926664.712077) vcan0 244#0000000967
(1608926664.725623) vcan0 244#000000097A
(1608926664.738804) vcan0 244#000000098C
(1608926664.751359) vcan0 244#000000099E
(1608926664.763545) vcan0 244#00000009B0
(1608926664.777448) vcan0 244#00000009C2
(1608926664.791887) vcan0 244#00000009D4
(1608926664.804779) vcan0 244#00000009E6
(1608926664.817468) vcan0 244#00000009F8
(1608926664.831084) vcan0 244#0000000A0A
(1608926664.844710) vcan0 244#0000000A1D
(1608926664.857410) vcan0 244#0000000A2F
(1608926664.871109) vcan0 244#0000000A41
(1608926664.884847) vcan0 244#0000000A53
(1608926664.897191) vcan0 244#0000000A65
(1608926664.909212) vcan0 244#0000000A77
(1608926664.922841) vcan0 244#0000000A89
(1608926664.935527) vcan0 244#0000000A9B
(1608926664.947798) vcan0 244#0000000AAD
(1608926664.961673) vcan0 244#0000000ABF
(1608926664.974470) vcan0 244#0000000AD2
(1608926664.989125) vcan0 244#0000000AE4
(1608926664.996093) vcan0 188#00000000
(1608926665.010315) vcan0 244#0000000AF6
(1608926665.025938) vcan0 244#0000000B08
(1608926665.042230) vcan0 244#0000000B1A
(1608926665.050576) vcan0 244#0000000B2C
(1608926665.064938) vcan0 244#0000000B3E
(1608926665.079511) vcan0 244#0000000B50
(1608926665.092246) vcan0 244#0000000B62
(1608926665.106383) vcan0 244#0000000B75
(1608926665.119228) vcan0 244#0000000B87
(1608926665.132860) vcan0 244#0000000B99
(1608926665.147306) vcan0 244#0000000BAB
(1608926665.161820) vcan0 244#0000000BBD
(1608926665.175060) vcan0 244#0000000BCF
(1608926665.189888) vcan0 244#0000000BE1
(1608926665.204797) vcan0 244#0000000BF3
(1608926665.219216) vcan0 244#0000000C05
(1608926665.232862) vcan0 244#0000000C17
(1608926665.246496) vcan0 244#0000000C2A
(1608926665.259009) vcan0 244#0000000C3C
(1608926665.271042) vcan0 244#0000000C4E
(1608926665.285321) vcan0 244#0000000C60
(1608926665.299198) vcan0 244#0000000C72
(1608926665.312034) vcan0 244#0000000C84
(1608926665.325972) vcan0 244#0000000C96
(1608926665.339844) vcan0 244#0000000CA8
(1608926665.353596) vcan0 244#0000000CBA
(1608926665.367323) vcan0 244#0000000CCD
(1608926665.380032) vcan0 244#0000000CDF
(1608926665.393884) vcan0 244#0000000CF1
(1608926665.407106) vcan0 244#0000000D03
(1608926665.421574) vcan0 244#0000000D15
(1608926665.434151) vcan0 244#0000000D27
(1608926665.446509) vcan0 244#0000000D39
(1608926665.459320) vcan0 244#0000000D4B
(1608926665.472658) vcan0 244#0000000D5D
(1608926665.485048) vcan0 244#0000000D6F
(1608926665.498823) vcan0 244#0000000D82
(1608926665.499007) vcan0 188#00000000
(1608926665.511558) vcan0 244#0000000D94
(1608926665.523837) vcan0 244#0000000DA6
(1608926665.537455) vcan0 244#0000000DB8
(1608926665.551709) vcan0 244#0000000DCA
(1608926665.563573) vcan0 244#0000000DDC
(1608926665.576273) vcan0 244#0000000DEE
(1608926665.589820) vcan0 244#0000000E00
(1608926665.602756) vcan0 244#0000000E12
(1608926665.617774) vcan0 244#0000000E24
(1608926665.633061) vcan0 244#0000000E37
(1608926665.646454) vcan0 244#0000000E49
(1608926665.659637) vcan0 244#0000000E5B
(1608926665.674159) vcan0 244#0000000E6D
(1608926665.687478) vcan0 244#0000000E7F
(1608926665.699855) vcan0 244#0000000E91
(1608926665.713405) vcan0 244#0000000EA3
(1608926665.729998) vcan0 244#0000000EB5
(1608926665.742669) vcan0 244#0000000EC7
(1608926665.756448) vcan0 244#0000000EDA
(1608926665.768203) vcan0 244#0000000EEC
(1608926665.781218) vcan0 244#0000000EFE
(1608926665.797186) vcan0 244#0000000F10
(1608926665.809704) vcan0 244#0000000F22
(1608926665.824233) vcan0 244#0000000F34
(1608926665.837554) vcan0 244#0000000F46
(1608926665.849683) vcan0 244#0000000F58
(1608926665.863475) vcan0 244#0000000F6A
(1608926665.876267) vcan0 244#0000000F7C
(1608926665.890399) vcan0 244#0000000F8F
(1608926665.903908) vcan0 244#0000000FA1
(1608926665.917009) vcan0 244#0000000FB3
(1608926665.929606) vcan0 244#0000000FC5
(1608926665.942412) vcan0 244#0000000FD7
(1608926665.956432) vcan0 244#0000000FE9
(1608926665.970580) vcan0 244#0000000FFB
(1608926665.983752) vcan0 244#000000100D
(1608926666.000070) vcan0 244#000000101F
(1608926666.009849) vcan0 244#0000001032
(1608926666.009926) vcan0 188#00000000
(1608926666.024054) vcan0 244#0000001044
(1608926666.039577) vcan0 244#0000001056
(1608926666.048316) vcan0 244#0000001068
(1608926666.061635) vcan0 244#000000107A
(1608926666.075431) vcan0 244#000000108C
(1608926666.088018) vcan0 244#000000109E
(1608926666.100922) vcan0 244#00000010B0
(1608926666.114527) vcan0 244#00000010C2
(1608926666.126482) vcan0 244#00000010D4
(1608926666.140020) vcan0 244#00000010E7
(1608926666.153537) vcan0 244#00000010F9
(1608926666.167921) vcan0 244#000000110B
(1608926666.181639) vcan0 244#000000111D
(1608926666.195192) vcan0 244#000000112F
(1608926666.206892) vcan0 244#0000001141
(1608926666.220209) vcan0 244#0000001153
(1608926666.232867) vcan0 244#0000001165
(1608926666.244841) vcan0 244#0000001177
(1608926666.260051) vcan0 244#000000118A
(1608926666.277286) vcan0 244#000000119C
(1608926666.290863) vcan0 244#00000011AE
(1608926666.304918) vcan0 244#00000011C0
(1608926666.317809) vcan0 244#00000011D2
(1608926666.331887) vcan0 244#00000011E4
(1608926666.343966) vcan0 244#00000011F6
(1608926666.360417) vcan0 244#0000001208
(1608926666.381721) vcan0 244#000000121A
(1608926666.393288) vcan0 244#000000122C
(1608926666.406241) vcan0 244#000000123F
(1608926666.419322) vcan0 244#0000001251
(1608926666.431681) vcan0 244#0000001263
(1608926666.451026) vcan0 244#0000001275
(1608926666.464794) vcan0 244#0000001287
(1608926666.478499) vcan0 244#0000001299
(1608926666.491986) vcan0 244#00000012AB
(1608926666.506388) vcan0 244#00000012BD
(1608926666.512371) vcan0 188#00000000
(1608926666.518466) vcan0 244#00000012CF
(1608926666.530123) vcan0 244#00000012E2
(1608926666.542339) vcan0 244#00000012F4
(1608926666.556583) vcan0 244#0000001306
(1608926666.569917) vcan0 244#0000001318
(1608926666.581029) vcan0 244#000000132A
(1608926666.594331) vcan0 244#000000133C
(1608926666.607171) vcan0 244#000000134E
(1608926666.623528) vcan0 244#0000001360
(1608926666.638805) vcan0 244#0000001372
(1608926666.651844) vcan0 244#0000001384
(1608926666.669536) vcan0 244#0000001397
(1608926666.682218) vcan0 244#00000013A9
(1608926666.695626) vcan0 244#00000013BB
(1608926666.708564) vcan0 244#00000013CD
(1608926666.721031) vcan0 244#00000013DF
(1608926666.735641) vcan0 244#00000013F1
(1608926666.748140) vcan0 244#0000001403
(1608926666.760552) vcan0 244#0000001415
(1608926666.772413) vcan0 244#0000001427
(1608926666.784548) vcan0 244#000000143A
(1608926666.795981) vcan0 244#000000144C
(1608926666.807776) vcan0 244#000000145E
(1608926666.820304) vcan0 244#0000001470
(1608926666.832901) vcan0 244#0000001482
(1608926666.850950) vcan0 244#0000001494
(1608926666.863172) vcan0 244#00000014A6
(1608926666.874937) vcan0 244#00000014B8
(1608926666.888715) vcan0 244#00000014CA
(1608926666.900996) vcan0 244#00000014DC
(1608926666.914338) vcan0 244#00000014EF
(1608926666.925659) vcan0 244#0000001501
(1608926666.937843) vcan0 244#0000001513
(1608926666.950368) vcan0 244#0000001525
(1608926666.963823) vcan0 244#0000001537
(1608926666.978921) vcan0 244#0000001549
(1608926666.997692) vcan0 244#000000155B
(1608926667.013303) vcan0 244#000000156D
(1608926667.013385) vcan0 188#00000000
(1608926667.032531) vcan0 244#000000157F
(1608926667.049236) vcan0 244#0000001592
(1608926667.065330) vcan0 244#00000015A4
(1608926667.081881) vcan0 244#00000015B6
(1608926667.098395) vcan0 244#00000015C8
(1608926667.112199) vcan0 244#00000015DA
(1608926667.126197) vcan0 244#00000015EC
(1608926667.140148) vcan0 244#00000015FE
(1608926667.152769) vcan0 244#0000001610
(1608926667.165707) vcan0 244#0000001622
(1608926667.178629) vcan0 244#0000001634
(1608926667.191677) vcan0 244#0000001647
(1608926667.204217) vcan0 244#0000001659
(1608926667.217847) vcan0 244#000000166B
(1608926667.231315) vcan0 244#000000167D
(1608926667.245347) vcan0 244#000000168F
(1608926667.259254) vcan0 244#00000016A1
(1608926667.271657) vcan0 244#00000016B3
(1608926667.284136) vcan0 244#00000016C5
(1608926667.297701) vcan0 244#00000016D7
(1608926667.311626) vcan0 244#00000016EA
(1608926667.325463) vcan0 244#00000016FC
(1608926667.337766) vcan0 244#000000170E
(1608926667.350367) vcan0 244#0000001720
(1608926667.363496) vcan0 244#0000001732
(1608926667.376008) vcan0 244#0000001744
(1608926667.389773) vcan0 244#0000001756
(1608926667.402708) vcan0 244#0000001768
(1608926667.415924) vcan0 244#000000177A
(1608926667.428075) vcan0 244#000000178C
(1608926667.442296) vcan0 244#000000179F
(1608926667.453613) vcan0 244#00000017B1
(1608926667.467184) vcan0 244#00000017C3
(1608926667.481775) vcan0 244#00000017D5
(1608926667.494631) vcan0 244#00000017E7
(1608926667.507234) vcan0 244#00000017F9
(1608926667.520158) vcan0 244#000000180B
(1608926667.520201) vcan0 188#00000000
(1608926667.532004) vcan0 244#000000181D
(1608926667.544029) vcan0 244#000000182F
(1608926667.557966) vcan0 244#0000001841
(1608926667.571141) vcan0 244#0000001854
(1608926667.583068) vcan0 244#0000001866
(1608926667.595472) vcan0 244#0000001878
(1608926667.607968) vcan0 244#000000188A
(1608926667.620688) vcan0 244#000000189C
(1608926667.632910) vcan0 244#00000018AE
(1608926667.646229) vcan0 244#00000018C0
(1608926667.658173) vcan0 244#00000018D2
(1608926667.671161) vcan0 244#00000018E4
(1608926667.686081) vcan0 244#00000018F7
(1608926667.699322) vcan0 244#0000001909
(1608926667.712494) vcan0 244#000000191B
(1608926667.724046) vcan0 244#000000192D
(1608926667.737315) vcan0 244#000000193F
(1608926667.754557) vcan0 244#0000001951
(1608926667.772404) vcan0 244#0000001963
(1608926667.785119) vcan0 244#0000001975
(1608926667.799447) vcan0 244#0000001987
(1608926667.812428) vcan0 244#0000001999
(1608926667.824938) vcan0 244#00000019AC
(1608926667.837300) vcan0 244#00000019BE
(1608926667.849350) vcan0 244#00000019D0
(1608926667.863374) vcan0 244#00000019E2
(1608926667.880747) vcan0 244#00000019F4
(1608926667.894983) vcan0 244#0000001A06
(1608926667.908768) vcan0 244#0000001A18
(1608926667.922387) vcan0 244#0000001A2A
(1608926667.934650) vcan0 244#0000001A3C
(1608926667.948235) vcan0 244#0000001A4F
(1608926667.961636) vcan0 244#0000001A61
(1608926667.976630) vcan0 244#0000001A73
(1608926667.989755) vcan0 244#0000001A85
(1608926668.007205) vcan0 244#0000001A97
(1608926668.022718) vcan0 244#0000001AA9
(1608926668.022800) vcan0 188#00000000
(1608926668.034742) vcan0 244#0000001ABB
(1608926668.047299) vcan0 244#0000001ACD
(1608926668.062827) vcan0 244#0000001ADF
(1608926668.075039) vcan0 244#0000001AF1
(1608926668.088475) vcan0 244#0000001B04
(1608926668.100045) vcan0 244#0000001B16
(1608926668.112133) vcan0 244#0000001B28
(1608926668.124152) vcan0 244#0000001B3A
(1608926668.136430) vcan0 244#0000001B4C
(1608926668.149044) vcan0 244#0000001B5E
(1608926668.165051) vcan0 244#0000001B70
(1608926668.177303) vcan0 244#0000001B82
(1608926668.188838) vcan0 244#0000001B94
(1608926668.201136) vcan0 244#0000001BA7
(1608926668.212991) vcan0 244#0000001BB9
(1608926668.225218) vcan0 244#0000001BCB
(1608926668.237669) vcan0 244#0000001BDD
(1608926668.252777) vcan0 244#0000001BEF
(1608926668.266329) vcan0 244#0000001C01
(1608926668.281019) vcan0 244#0000001C13
(1608926668.293830) vcan0 244#0000001C25
(1608926668.308965) vcan0 244#0000001C37
(1608926668.321655) vcan0 244#0000001C49
(1608926668.335800) vcan0 244#0000001C5C
(1608926668.348471) vcan0 244#0000001C6E
(1608926668.362930) vcan0 244#0000001C80
(1608926668.375721) vcan0 244#0000001C92
(1608926668.387869) vcan0 244#0000001CA4
(1608926668.401207) vcan0 244#0000001CB6
(1608926668.412876) vcan0 244#0000001CC8
(1608926668.424010) vcan0 244#0000001CDA
(1608926668.435736) vcan0 244#0000001CEC
(1608926668.448417) vcan0 244#0000001CFF
(1608926668.461467) vcan0 244#0000001D11
(1608926668.473596) vcan0 244#0000001D23
(1608926668.485834) vcan0 244#0000001D35
(1608926668.498150) vcan0 244#0000001D47
(1608926668.510172) vcan0 244#0000001D59
(1608926668.523816) vcan0 244#0000001D6B
(1608926668.530024) vcan0 188#00000000
(1608926668.537152) vcan0 244#0000001D7D
(1608926668.550302) vcan0 244#0000001D8F
(1608926668.562053) vcan0 244#0000001DA1
(1608926668.574099) vcan0 244#0000001DB4
(1608926668.586497) vcan0 244#0000001DC6
(1608926668.598185) vcan0 244#0000001DD8
(1608926668.610208) vcan0 244#0000001DEA
(1608926668.622159) vcan0 244#0000001DFC
(1608926668.634065) vcan0 244#0000001E0E
(1608926668.645574) vcan0 244#0000001E20
(1608926668.658760) vcan0 244#0000001E32
(1608926668.670324) vcan0 244#0000001E44
(1608926668.682420) vcan0 244#0000001E57
(1608926668.694570) vcan0 244#0000001E69
(1608926668.706433) vcan0 244#0000001E7B
(1608926668.718612) vcan0 244#0000001E8D
(1608926668.731791) vcan0 244#0000001E9F
(1608926668.744984) vcan0 244#0000001EB1
(1608926668.759171) vcan0 244#0000001EC3
(1608926668.774006) vcan0 244#0000001ED5
(1608926668.789911) vcan0 244#0000001EE7
(1608926668.805444) vcan0 244#0000001EF9
(1608926668.820035) vcan0 244#0000001F0C
(1608926668.832804) vcan0 244#0000001F1E
(1608926668.846185) vcan0 244#0000001F30
(1608926668.864609) vcan0 244#0000001F42
(1608926668.878660) vcan0 244#0000001F54
(1608926668.892376) vcan0 244#0000001F66
(1608926668.908891) vcan0 244#0000001F78
(1608926668.921480) vcan0 244#0000001F8A
(1608926668.934413) vcan0 244#0000001F9C
(1608926668.947002) vcan0 244#0000001FAF
(1608926668.959289) vcan0 244#0000001FC1
(1608926668.972189) vcan0 244#0000001FD3
(1608926668.984094) vcan0 244#0000001FE5
(1608926668.997354) vcan0 244#0000001FF7
(1608926669.008884) vcan0 244#0000002009
(1608926669.022318) vcan0 244#000000201B
(1608926669.036721) vcan0 244#000000202D
(1608926669.036851) vcan0 188#00000000
(1608926669.048687) vcan0 244#000000203F
(1608926669.063756) vcan0 244#0000002051
(1608926669.076301) vcan0 244#0000002064
(1608926669.088757) vcan0 244#0000002076
(1608926669.102290) vcan0 244#0000002088
(1608926669.118028) vcan0 244#000000209A
(1608926669.130185) vcan0 244#00000020AC
(1608926669.142715) vcan0 244#00000020BE
(1608926669.155210) vcan0 244#00000020D0
(1608926669.167820) vcan0 244#00000020E2
(1608926669.180667) vcan0 244#00000020F4
(1608926669.192774) vcan0 244#0000002107
(1608926669.204817) vcan0 244#0000002119
(1608926669.216920) vcan0 244#000000212B
(1608926669.228566) vcan0 244#000000213D
(1608926669.241887) vcan0 244#000000214F
(1608926669.254453) vcan0 244#0000002161
(1608926669.266417) vcan0 244#0000002173
(1608926669.279118) vcan0 244#0000002185
(1608926669.291948) vcan0 244#0000002197
(1608926669.304569) vcan0 244#00000021A9
(1608926669.317107) vcan0 244#00000021BC
(1608926669.330652) vcan0 244#00000021CE
(1608926669.344767) vcan0 244#00000021E0
(1608926669.356616) vcan0 244#00000021F2
(1608926669.369415) vcan0 244#0000002204
(1608926669.384059) vcan0 244#0000002216
(1608926669.396690) vcan0 244#0000002228
(1608926669.408761) vcan0 244#000000223A
(1608926669.420317) vcan0 244#000000224C
(1608926669.432721) vcan0 244#000000225E
(1608926669.446707) vcan0 244#0000002271
(1608926669.458422) vcan0 244#0000002283
(1608926669.471909) vcan0 244#0000002295
(1608926669.483837) vcan0 244#00000022A7
(1608926669.496141) vcan0 244#00000022B9
(1608926669.511150) vcan0 244#00000022CB
(1608926669.523896) vcan0 244#00000022DD
(1608926669.535840) vcan0 244#00000022EF
(1608926669.544057) vcan0 188#00000000
(1608926669.550892) vcan0 244#0000002301
(1608926669.564389) vcan0 244#0000002314
(1608926669.577621) vcan0 244#0000002326
(1608926669.592196) vcan0 244#0000002338
(1608926669.613700) vcan0 244#000000234A
(1608926669.627816) vcan0 244#000000235C
(1608926669.641588) vcan0 244#000000236E
(1608926669.656056) vcan0 244#0000002380
(1608926669.670674) vcan0 244#0000002392
(1608926669.685073) vcan0 244#00000023A4
(1608926669.699353) vcan0 244#00000023B6
(1608926669.711892) vcan0 244#00000023C9
(1608926669.727589) vcan0 244#00000023DB
(1608926669.740095) vcan0 244#00000023ED
(1608926669.752060) vcan0 244#00000023FF
(1608926669.764998) vcan0 244#0000002411
(1608926669.780990) vcan0 244#0000002423
(1608926669.794068) vcan0 244#0000002435
(1608926669.806411) vcan0 244#0000002447
(1608926669.818767) vcan0 244#0000002459
(1608926669.832352) vcan0 244#000000246C
(1608926669.846850) vcan0 244#000000247E
(1608926669.859136) vcan0 244#0000002490
(1608926669.872574) vcan0 244#00000024A2
(1608926669.889029) vcan0 244#00000024B4
(1608926669.902236) vcan0 244#00000024C6
(1608926669.915077) vcan0 244#00000024D8
(1608926669.928217) vcan0 244#00000024EA
(1608926669.940368) vcan0 244#00000024FC
(1608926669.956386) vcan0 244#000000250E
(1608926669.968771) vcan0 244#0000002521
(1608926669.981843) vcan0 244#0000002533
(1608926669.996978) vcan0 244#0000002545
(1608926670.010991) vcan0 244#0000002557
(1608926670.024420) vcan0 244#0000002569
(1608926670.033550) vcan0 244#000000257B
(1608926670.046401) vcan0 244#000000258D
(1608926670.046480) vcan0 188#00000000
(1608926670.058954) vcan0 244#000000259F
(1608926670.072443) vcan0 244#00000025B1
(1608926670.085312) vcan0 244#00000025C4
(1608926670.097574) vcan0 244#00000025D6
(1608926670.109513) vcan0 244#00000025E8
(1608926670.121486) vcan0 244#00000025FA
(1608926670.133713) vcan0 244#000000260C
(1608926670.145841) vcan0 244#000000261E
(1608926670.159895) vcan0 244#0000002630
(1608926670.172400) vcan0 244#0000002642
(1608926670.184064) vcan0 244#0000002654
(1608926670.196255) vcan0 244#0000002666
(1608926670.209323) vcan0 244#0000002679
(1608926670.221905) vcan0 244#000000268B
(1608926670.236630) vcan0 244#000000269D
(1608926670.248752) vcan0 244#00000026AF
(1608926670.260687) vcan0 244#00000026C1
(1608926670.273444) vcan0 244#00000026D3
(1608926670.285534) vcan0 244#00000026E5
(1608926670.298885) vcan0 244#00000026F7
(1608926670.313237) vcan0 244#0000002709
(1608926670.325653) vcan0 244#000000271C
(1608926670.339565) vcan0 244#000000272E
(1608926670.354679) vcan0 244#0000002740
(1608926670.366428) vcan0 244#0000002752
(1608926670.379229) vcan0 244#0000002764
(1608926670.392539) vcan0 244#0000002776
(1608926670.406578) vcan0 244#0000002788
(1608926670.418821) vcan0 244#000000279A
(1608926670.432536) vcan0 244#00000027AC
(1608926670.444884) vcan0 244#00000027BE
(1608926670.457657) vcan0 244#00000027D1
(1608926670.472278) vcan0 244#00000027E3
(1608926670.485415) vcan0 244#00000027F5
(1608926670.498182) vcan0 244#0000002807
(1608926670.510704) vcan0 244#00000027F5
(1608926670.524690) vcan0 244#00000027E3
(1608926670.537479) vcan0 244#00000027D1
(1608926670.550393) vcan0 244#00000027BE
(1608926670.550541) vcan0 188#00000000
(1608926670.564915) vcan0 244#00000027AC
(1608926670.578731) vcan0 244#000000279A
(1608926670.591474) vcan0 244#0000002788
(1608926670.605276) vcan0 244#0000002776
(1608926670.619210) vcan0 244#0000002764
(1608926670.631834) vcan0 244#0000002752
(1608926670.644563) vcan0 244#0000002740
(1608926670.658749) vcan0 244#000000272E
(1608926670.672351) vcan0 244#000000271C
(1608926670.685927) vcan0 244#0000002709
(1608926670.699175) vcan0 244#00000026F7
(1608926670.712949) vcan0 244#00000026E5
(1608926670.726646) vcan0 244#00000026D3
(1608926670.740231) vcan0 244#00000026C1
(1608926670.754231) vcan0 244#00000026AF
(1608926670.769495) vcan0 244#000000269D
(1608926670.784658) vcan0 244#000000268B
(1608926670.800631) vcan0 244#0000002679
(1608926670.813063) vcan0 244#0000002666
(1608926670.824913) vcan0 244#0000002654
(1608926670.837161) vcan0 244#0000002642
(1608926670.852210) vcan0 244#0000002630
(1608926670.865494) vcan0 244#000000261E
(1608926670.878980) vcan0 244#000000260C
(1608926670.892108) vcan0 244#00000025FA
(1608926670.905075) vcan0 244#00000025E8
(1608926670.919871) vcan0 244#00000025D6
(1608926670.932534) vcan0 244#00000025C4
(1608926670.944655) vcan0 244#00000025B1
(1608926670.957916) vcan0 244#000000259F
(1608926670.972206) vcan0 244#000000258D
(1608926670.986807) vcan0 244#000000257B
(1608926670.999675) vcan0 244#0000002569
(1608926671.013352) vcan0 244#0000002557
(1608926671.028499) vcan0 244#0000002545
(1608926671.042372) vcan0 244#0000002533
(1608926671.054934) vcan0 244#0000002521
(1608926671.055065) vcan0 188#00000000
(1608926671.068498) vcan0 244#000000250E
(1608926671.082217) vcan0 244#00000024FC
(1608926671.095883) vcan0 244#00000024EA
(1608926671.109059) vcan0 244#00000024D8
(1608926671.121451) vcan0 244#00000024C6
(1608926671.122520) vcan0 19B#00000F000000
(1608926671.136388) vcan0 244#00000024B4
(1608926671.149383) vcan0 244#00000024A2
(1608926671.166316) vcan0 244#0000002490
(1608926671.181322) vcan0 244#000000247E
(1608926671.194391) vcan0 244#000000246C
(1608926671.206702) vcan0 244#0000002459
(1608926671.220949) vcan0 244#0000002447
(1608926671.234507) vcan0 244#0000002435
(1608926671.247731) vcan0 244#0000002423
(1608926671.259914) vcan0 244#0000002411
(1608926671.271838) vcan0 244#00000023FF
(1608926671.284743) vcan0 244#00000023ED
(1608926671.300478) vcan0 244#00000023DB
(1608926671.312885) vcan0 244#00000023C9
(1608926671.327717) vcan0 244#00000023B6
(1608926671.339908) vcan0 244#00000023A4
(1608926671.353974) vcan0 244#0000002392
(1608926671.367299) vcan0 244#0000002380
(1608926671.380091) vcan0 244#000000236E
(1608926671.392891) vcan0 244#000000235C
(1608926671.406546) vcan0 244#000000234A
(1608926671.419682) vcan0 244#0000002338
(1608926671.432553) vcan0 244#0000002326
(1608926671.444511) vcan0 244#0000002314
(1608926671.458329) vcan0 244#0000002301
(1608926671.471763) vcan0 244#00000022EF
(1608926671.484840) vcan0 244#00000022DD
(1608926671.497857) vcan0 244#00000022CB
(1608926671.510739) vcan0 244#00000022B9
(1608926671.524650) vcan0 244#00000022A7
(1608926671.538038) vcan0 244#0000002295
(1608926671.551043) vcan0 244#0000002283
(1608926671.558329) vcan0 188#00000000
(1608926671.564019) vcan0 244#0000002271
(1608926671.577062) vcan0 244#000000225E
(1608926671.590170) vcan0 244#000000224C
(1608926671.602718) vcan0 244#000000223A
(1608926671.615301) vcan0 244#0000002228
(1608926671.627911) vcan0 244#0000002216
(1608926671.640587) vcan0 244#0000002204
(1608926671.652471) vcan0 244#00000021F2
(1608926671.664685) vcan0 244#00000021E0
(1608926671.676369) vcan0 244#00000021CE
(1608926671.688390) vcan0 244#00000021BC
(1608926671.701848) vcan0 244#00000021A9
(1608926671.716503) vcan0 244#0000002197
(1608926671.731043) vcan0 244#0000002185
(1608926671.743511) vcan0 244#0000002173
(1608926671.756248) vcan0 244#0000002161
(1608926671.769293) vcan0 244#000000214F
(1608926671.783123) vcan0 244#000000213D
(1608926671.795941) vcan0 244#000000212B
(1608926671.807808) vcan0 244#0000002119
(1608926671.819934) vcan0 244#0000002107
(1608926671.833289) vcan0 244#00000020F4
(1608926671.846431) vcan0 244#00000020E2
(1608926671.858725) vcan0 244#00000020D0
(1608926671.870511) vcan0 244#00000020BE
(1608926671.884546) vcan0 244#00000020AC
(1608926671.897262) vcan0 244#000000209A
(1608926671.910919) vcan0 244#0000002088
(1608926671.924760) vcan0 244#0000002076
(1608926671.938437) vcan0 244#0000002064
(1608926671.949556) vcan0 244#0000002051
(1608926671.960945) vcan0 244#000000203F
(1608926671.973644) vcan0 244#000000202D
(1608926671.987743) vcan0 244#000000201B
(1608926672.000913) vcan0 244#0000002009
(1608926672.020136) vcan0 244#0000001FF7
(1608926672.034983) vcan0 244#0000001FE5
(1608926672.049268) vcan0 244#0000001FD3
(1608926672.063024) vcan0 244#0000001FC1
(1608926672.063221) vcan0 188#00000000
(1608926672.075051) vcan0 244#0000001FAF
(1608926672.087487) vcan0 244#0000001F9C
(1608926672.100297) vcan0 244#0000001F8A
(1608926672.113058) vcan0 244#0000001F78
(1608926672.130394) vcan0 244#0000001F66
(1608926672.143305) vcan0 244#0000001F54
(1608926672.155322) vcan0 244#0000001F42
(1608926672.167819) vcan0 244#0000001F30
(1608926672.180539) vcan0 244#0000001F1E
(1608926672.192038) vcan0 244#0000001F0C
(1608926672.205937) vcan0 244#0000001EF9
(1608926672.217667) vcan0 244#0000001EE7
(1608926672.232074) vcan0 244#0000001ED5
(1608926672.244624) vcan0 244#0000001EC3
(1608926672.257580) vcan0 244#0000001EB1
(1608926672.269946) vcan0 244#0000001E9F
(1608926672.282334) vcan0 244#0000001E8D
(1608926672.294119) vcan0 244#0000001E7B
(1608926672.306248) vcan0 244#0000001E69
(1608926672.318854) vcan0 244#0000001E57
(1608926672.330887) vcan0 244#0000001E44
(1608926672.342914) vcan0 244#0000001E32
(1608926672.353909) vcan0 244#0000001E20
(1608926672.365206) vcan0 244#0000001E0E
(1608926672.378684) vcan0 244#0000001DFC
(1608926672.391456) vcan0 244#0000001DEA
(1608926672.403504) vcan0 244#0000001DD8
(1608926672.415773) vcan0 244#0000001DC6
(1608926672.426994) vcan0 244#0000001DB4
(1608926672.438550) vcan0 244#0000001DA1
(1608926672.450479) vcan0 244#0000001D8F
(1608926672.461639) vcan0 244#0000001D7D
(1608926672.474618) vcan0 244#0000001D6B
(1608926672.487169) vcan0 244#0000001D59
(1608926672.500255) vcan0 244#0000001D47
(1608926672.512820) vcan0 244#0000001D35
(1608926672.523946) vcan0 244#0000001D23
(1608926672.538452) vcan0 244#0000001D11
(1608926672.549998) vcan0 244#0000001CFF
(1608926672.562307) vcan0 244#0000001CEC
(1608926672.568871) vcan0 188#00000000
(1608926672.575798) vcan0 244#0000001CDA
(1608926672.590392) vcan0 244#0000001CC8
(1608926672.603076) vcan0 244#0000001CB6
(1608926672.615745) vcan0 244#0000001CA4
(1608926672.627908) vcan0 244#0000001C92
(1608926672.641686) vcan0 244#0000001C80
(1608926672.653667) vcan0 244#0000001C6E
(1608926672.664846) vcan0 244#0000001C5C
(1608926672.677531) vcan0 244#0000001C49
(1608926672.689450) vcan0 244#0000001C37
(1608926672.701363) vcan0 244#0000001C25
(1608926672.713398) vcan0 244#0000001C13
(1608926672.726110) vcan0 244#0000001C01
(1608926672.738303) vcan0 244#0000001BEF
(1608926672.751220) vcan0 244#0000001BDD
(1608926672.763886) vcan0 244#0000001BCB
(1608926672.778343) vcan0 244#0000001BB9
(1608926672.790315) vcan0 244#0000001BA7
(1608926672.804650) vcan0 244#0000001B94
(1608926672.820553) vcan0 244#0000001B82
(1608926672.832029) vcan0 244#0000001B70
(1608926672.843448) vcan0 244#0000001B5E
(1608926672.856913) vcan0 244#0000001B4C
(1608926672.870276) vcan0 244#0000001B3A
(1608926672.882921) vcan0 244#0000001B28
(1608926672.896547) vcan0 244#0000001B16
(1608926672.909833) vcan0 244#0000001B04
(1608926672.925049) vcan0 244#0000001AF1
(1608926672.937707) vcan0 244#0000001ADF
(1608926672.952000) vcan0 244#0000001ACD
(1608926672.966484) vcan0 244#0000001ABB
(1608926672.979338) vcan0 244#0000001AA9
(1608926672.993464) vcan0 244#0000001A97
(1608926673.007177) vcan0 244#0000001A85
(1608926673.019351) vcan0 244#0000001A73
(1608926673.037660) vcan0 244#0000001A61
(1608926673.049752) vcan0 244#0000001A4F
(1608926673.066467) vcan0 244#0000001A3C
(1608926673.072611) vcan0 188#00000000
(1608926673.079316) vcan0 244#0000001A2A
(1608926673.091894) vcan0 244#0000001A18
(1608926673.106117) vcan0 244#0000001A06
(1608926673.119079) vcan0 244#00000019F4
(1608926673.132476) vcan0 244#00000019E2
(1608926673.145495) vcan0 244#00000019D0
(1608926673.157900) vcan0 244#00000019BE
(1608926673.170294) vcan0 244#00000019AC
(1608926673.182546) vcan0 244#0000001999
(1608926673.196032) vcan0 244#0000001987
(1608926673.211084) vcan0 244#0000001975
(1608926673.225687) vcan0 244#0000001963
(1608926673.238954) vcan0 244#0000001951
(1608926673.252194) vcan0 244#000000193F
(1608926673.265239) vcan0 244#000000192D
(1608926673.279470) vcan0 244#000000191B
(1608926673.292902) vcan0 244#0000001909
(1608926673.306423) vcan0 244#00000018F7
(1608926673.318399) vcan0 244#00000018E4
(1608926673.331120) vcan0 244#00000018D2
(1608926673.345535) vcan0 244#00000018C0
(1608926673.358241) vcan0 244#00000018AE
(1608926673.372231) vcan0 244#000000189C
(1608926673.384584) vcan0 244#000000188A
(1608926673.397094) vcan0 244#0000001878
(1608926673.409030) vcan0 244#0000001866
(1608926673.421360) vcan0 244#0000001854
(1608926673.434575) vcan0 244#0000001841
(1608926673.447180) vcan0 244#000000182F
(1608926673.459777) vcan0 244#000000181D
(1608926673.473604) vcan0 244#000000180B
(1608926673.488424) vcan0 244#00000017F9
(1608926673.500701) vcan0 244#00000017E7
(1608926673.512733) vcan0 244#00000017D5
(1608926673.524142) vcan0 244#00000017C3
(1608926673.535638) vcan0 244#00000017B1
(1608926673.549194) vcan0 244#000000179F
(1608926673.561709) vcan0 244#000000178C
(1608926673.573881) vcan0 244#000000177A
(1608926673.579853) vcan0 188#00000000
(1608926673.585737) vcan0 244#0000001768
(1608926673.597515) vcan0 244#0000001756
(1608926673.610972) vcan0 244#0000001744
(1608926673.624407) vcan0 244#0000001732
(1608926673.636393) vcan0 244#0000001720
(1608926673.649100) vcan0 244#000000170E
(1608926673.662494) vcan0 244#00000016FC
(1608926673.674747) vcan0 244#00000016EA
(1608926673.688368) vcan0 244#00000016D7
(1608926673.701832) vcan0 244#00000016C5
(1608926673.714968) vcan0 244#00000016B3
(1608926673.728991) vcan0 244#00000016A1
(1608926673.743085) vcan0 244#000000168F
(1608926673.755868) vcan0 244#000000167D
(1608926673.769012) vcan0 244#000000166B
(1608926673.781788) vcan0 244#0000001659
(1608926673.794562) vcan0 244#0000001647
(1608926673.809270) vcan0 244#0000001634
(1608926673.822000) vcan0 244#0000001622
(1608926673.834026) vcan0 244#0000001610
(1608926673.846797) vcan0 244#00000015FE
(1608926673.857842) vcan0 244#00000015EC
(1608926673.870176) vcan0 244#00000015DA
(1608926673.882263) vcan0 244#00000015C8
(1608926673.894499) vcan0 244#00000015B6
(1608926673.906036) vcan0 244#00000015A4
(1608926673.917973) vcan0 244#0000001592
(1608926673.929598) vcan0 244#000000157F
(1608926673.943048) vcan0 244#000000156D
(1608926673.954755) vcan0 244#000000155B
(1608926673.966800) vcan0 244#0000001549
(1608926673.978376) vcan0 244#0000001537
(1608926673.993763) vcan0 244#0000001525
(1608926674.009698) vcan0 244#0000001513
(1608926674.022692) vcan0 244#0000001501
(1608926674.034043) vcan0 244#00000014EF
(1608926674.048269) vcan0 244#00000014DC
(1608926674.061162) vcan0 244#00000014CA
(1608926674.074258) vcan0 244#00000014B8
(1608926674.086283) vcan0 244#00000014A6
(1608926674.086447) vcan0 188#00000000
(1608926674.092148) vcan0 19B#000000000000
(1608926674.099476) vcan0 244#0000001494
(1608926674.112144) vcan0 244#0000001482
(1608926674.124485) vcan0 244#0000001470
(1608926674.136535) vcan0 244#000000145E
(1608926674.150215) vcan0 244#000000144C
(1608926674.161710) vcan0 244#000000143A
(1608926674.174097) vcan0 244#0000001427
(1608926674.187301) vcan0 244#0000001415
(1608926674.199972) vcan0 244#0000001403
(1608926674.212155) vcan0 244#00000013F1
(1608926674.224403) vcan0 244#00000013DF
(1608926674.237943) vcan0 244#00000013CD
(1608926674.251118) vcan0 244#00000013BB
(1608926674.263976) vcan0 244#00000013A9
(1608926674.277360) vcan0 244#0000001397
(1608926674.289102) vcan0 244#0000001384
(1608926674.301323) vcan0 244#0000001372
(1608926674.313461) vcan0 244#0000001360
(1608926674.325711) vcan0 244#000000134E
(1608926674.340856) vcan0 244#000000133C
(1608926674.352380) vcan0 244#000000132A
(1608926674.364591) vcan0 244#0000001318
(1608926674.376558) vcan0 244#0000001306
(1608926674.388256) vcan0 244#00000012F4
(1608926674.400590) vcan0 244#00000012E2
(1608926674.412395) vcan0 244#00000012CF
(1608926674.425051) vcan0 244#00000012BD
(1608926674.437193) vcan0 244#00000012AB
(1608926674.450810) vcan0 244#0000001299
(1608926674.463821) vcan0 244#0000001287
(1608926674.477497) vcan0 244#0000001275
(1608926674.492109) vcan0 244#0000001263
(1608926674.504228) vcan0 244#0000001251
(1608926674.517180) vcan0 244#000000123F
(1608926674.529425) vcan0 244#000000122C
(1608926674.541581) vcan0 244#000000121A
(1608926674.553676) vcan0 244#0000001208
(1608926674.566042) vcan0 244#00000011F6
(1608926674.577438) vcan0 244#00000011E4
(1608926674.589815) vcan0 244#00000011D2
(1608926674.589954) vcan0 188#00000000
(1608926674.602411) vcan0 244#00000011C0
(1608926674.616363) vcan0 244#00000011AE
(1608926674.628999) vcan0 244#000000119C
(1608926674.641420) vcan0 244#000000118A
(1608926674.655656) vcan0 244#0000001177
(1608926674.667537) vcan0 244#0000001165
(1608926674.679672) vcan0 244#0000001153
(1608926674.691691) vcan0 244#0000001141
(1608926674.703835) vcan0 244#000000112F
(1608926674.716169) vcan0 244#000000111D
(1608926674.728846) vcan0 244#000000110B
(1608926674.741696) vcan0 244#00000010F9
(1608926674.753914) vcan0 244#00000010E7
(1608926674.765995) vcan0 244#00000010D4
(1608926674.778087) vcan0 244#00000010C2
(1608926674.790088) vcan0 244#00000010B0
(1608926674.802116) vcan0 244#000000109E
(1608926674.815598) vcan0 244#000000108C
(1608926674.828169) vcan0 244#000000107A
(1608926674.839759) vcan0 244#0000001068
(1608926674.854999) vcan0 244#0000001056
(1608926674.867556) vcan0 244#0000001044
(1608926674.880365) vcan0 244#0000001032
(1608926674.894720) vcan0 244#000000101F
(1608926674.910965) vcan0 244#000000100D
(1608926674.924169) vcan0 244#0000000FFB
(1608926674.938131) vcan0 244#0000000FE9
(1608926674.951003) vcan0 244#0000000FD7
(1608926674.964086) vcan0 244#0000000FC5
(1608926674.977186) vcan0 244#0000000FB3
(1608926674.992136) vcan0 244#0000000FA1
(1608926675.005780) vcan0 244#0000000F8F
(1608926675.020164) vcan0 244#0000000F7C
(1608926675.040383) vcan0 244#0000000F6A
(1608926675.053859) vcan0 244#0000000F58
(1608926675.065655) vcan0 244#0000000F46
(1608926675.079421) vcan0 244#0000000F34
(1608926675.092864) vcan0 244#0000000F22
(1608926675.099853) vcan0 188#00000000
(1608926675.106900) vcan0 244#0000000F10
(1608926675.120475) vcan0 244#0000000EFE
(1608926675.134017) vcan0 244#0000000EEC
(1608926675.147023) vcan0 244#0000000EDA
(1608926675.160161) vcan0 244#0000000EC7
(1608926675.174036) vcan0 244#0000000EB5
(1608926675.187399) vcan0 244#0000000EA3
(1608926675.200131) vcan0 244#0000000E91
(1608926675.213333) vcan0 244#0000000E7F
(1608926675.226778) vcan0 244#0000000E6D
(1608926675.240002) vcan0 244#0000000E5B
(1608926675.253077) vcan0 244#0000000E49
(1608926675.264845) vcan0 244#0000000E37
(1608926675.278638) vcan0 244#0000000E24
(1608926675.292647) vcan0 244#0000000E12
(1608926675.305756) vcan0 244#0000000E00
(1608926675.319780) vcan0 244#0000000DEE
(1608926675.332829) vcan0 244#0000000DDC
(1608926675.346693) vcan0 244#0000000DCA
(1608926675.360735) vcan0 244#0000000DB8
(1608926675.373226) vcan0 244#0000000DA6
(1608926675.387119) vcan0 244#0000000D94
(1608926675.400790) vcan0 244#0000000D82
(1608926675.414684) vcan0 244#0000000D6F
(1608926675.427297) vcan0 244#0000000D5D
(1608926675.441057) vcan0 244#0000000D4B
(1608926675.455478) vcan0 244#0000000D39
(1608926675.468629) vcan0 244#0000000D27
(1608926675.482045) vcan0 244#0000000D15
(1608926675.495500) vcan0 244#0000000D03
(1608926675.508407) vcan0 244#0000000CF1
(1608926675.522602) vcan0 244#0000000CDF
(1608926675.536183) vcan0 244#0000000CCD
(1608926675.549829) vcan0 244#0000000CBA
(1608926675.566476) vcan0 244#0000000CA8
(1608926675.579080) vcan0 244#0000000C96
(1608926675.591286) vcan0 244#0000000C84
(1608926675.604883) vcan0 244#0000000C72
(1608926675.605010) vcan0 188#00000000
(1608926675.620364) vcan0 244#0000000C60
(1608926675.632038) vcan0 244#0000000C4E
(1608926675.644360) vcan0 244#0000000C3C
(1608926675.657590) vcan0 244#0000000C2A
(1608926675.671891) vcan0 244#0000000C17
(1608926675.684430) vcan0 244#0000000C05
(1608926675.699698) vcan0 244#0000000BF3
(1608926675.711869) vcan0 244#0000000BE1
(1608926675.726028) vcan0 244#0000000BCF
(1608926675.738169) vcan0 244#0000000BBD
(1608926675.751739) vcan0 244#0000000BAB
(1608926675.764950) vcan0 244#0000000B99
(1608926675.776847) vcan0 244#0000000B87
(1608926675.790070) vcan0 244#0000000B75
(1608926675.805832) vcan0 244#0000000B62
(1608926675.818390) vcan0 244#0000000B50
(1608926675.832246) vcan0 244#0000000B3E
(1608926675.844797) vcan0 244#0000000B2C
(1608926675.856495) vcan0 244#0000000B1A
(1608926675.868546) vcan0 244#0000000B08
(1608926675.881581) vcan0 244#0000000AF6
(1608926675.894173) vcan0 244#0000000AE4
(1608926675.906893) vcan0 244#0000000AD2
(1608926675.922460) vcan0 244#0000000ABF
(1608926675.936664) vcan0 244#0000000AAD
(1608926675.950939) vcan0 244#0000000A9B
(1608926675.964954) vcan0 244#0000000A89
(1608926675.980365) vcan0 244#0000000A77
(1608926675.992941) vcan0 244#0000000A65
(1608926676.004654) vcan0 244#0000000A53
(1608926676.018337) vcan0 244#0000000A41
(1608926676.030866) vcan0 244#0000000A2F
(1608926676.045417) vcan0 244#0000000A1D
(1608926676.057970) vcan0 244#0000000A0A
(1608926676.072537) vcan0 244#00000009F8
(1608926676.086263) vcan0 244#00000009E6
(1608926676.097640) vcan0 244#00000009D4
(1608926676.110002) vcan0 244#00000009C2
(1608926676.110132) vcan0 188#00000000
(1608926676.121670) vcan0 244#00000009B0
(1608926676.133855) vcan0 244#000000099E
(1608926676.145867) vcan0 244#000000098C
(1608926676.158230) vcan0 244#000000097A
(1608926676.173241) vcan0 244#0000000967
(1608926676.185079) vcan0 244#0000000955
(1608926676.196054) vcan0 244#0000000943
(1608926676.208519) vcan0 244#0000000931
(1608926676.220359) vcan0 244#000000091F
(1608926676.232387) vcan0 244#000000090D
(1608926676.244892) vcan0 244#00000008FB
(1608926676.257684) vcan0 244#00000008E9
(1608926676.270540) vcan0 244#00000008D7
(1608926676.282594) vcan0 244#00000008C5
(1608926676.294615) vcan0 244#00000008B2
(1608926676.306099) vcan0 244#00000008A0
(1608926676.318302) vcan0 244#000000088E
(1608926676.329997) vcan0 244#000000087C
(1608926676.342788) vcan0 244#000000086A
(1608926676.354995) vcan0 244#0000000858
(1608926676.366458) vcan0 244#0000000846
(1608926676.378232) vcan0 244#0000000834
(1608926676.390629) vcan0 244#0000000822
(1608926676.402213) vcan0 244#000000080F
(1608926676.413409) vcan0 244#00000007FD
(1608926676.425138) vcan0 244#00000007EB
(1608926676.437556) vcan0 244#00000007D9
(1608926676.451601) vcan0 244#00000007C7
(1608926676.464508) vcan0 244#00000007B5
(1608926676.476666) vcan0 244#00000007A3
(1608926676.487977) vcan0 244#0000000791
(1608926676.500106) vcan0 244#000000077F
(1608926676.513922) vcan0 244#000000076D
(1608926676.525813) vcan0 244#000000075A
(1608926676.538160) vcan0 244#0000000748
(1608926676.550366) vcan0 244#0000000736
(1608926676.563147) vcan0 244#0000000724
(1608926676.575497) vcan0 244#0000000712
(1608926676.587023) vcan0 244#0000000700
(1608926676.598652) vcan0 244#00000006EE
(1608926676.611624) vcan0 244#00000006DC
(1608926676.617537) vcan0 188#00000000
(1608926676.623894) vcan0 244#00000006CA
(1608926676.636980) vcan0 244#00000006B7
(1608926676.651814) vcan0 244#00000006A5
(1608926676.664472) vcan0 244#0000000693
(1608926676.676432) vcan0 244#0000000681
(1608926676.689024) vcan0 244#000000066F
(1608926676.701590) vcan0 244#000000065D
(1608926676.714327) vcan0 244#000000064B
(1608926676.727458) vcan0 244#0000000639
(1608926676.740472) vcan0 244#0000000627
(1608926676.753463) vcan0 244#0000000615
(1608926676.765248) vcan0 244#0000000602
(1608926676.778259) vcan0 244#00000005F0
(1608926676.790657) vcan0 244#00000005DE
(1608926676.803581) vcan0 244#00000005CC
(1608926676.815887) vcan0 244#00000005BA
(1608926676.827905) vcan0 244#00000005A8
(1608926676.839893) vcan0 244#0000000596
(1608926676.852918) vcan0 244#0000000584
(1608926676.865137) vcan0 244#0000000572
(1608926676.878200) vcan0 244#000000055F
(1608926676.889896) vcan0 244#000000054D
(1608926676.902756) vcan0 244#000000053B
(1608926676.914381) vcan0 244#0000000529
(1608926676.928678) vcan0 244#0000000517
(1608926676.943733) vcan0 244#0000000505
(1608926676.955255) vcan0 244#00000004F3
(1608926676.967979) vcan0 244#00000004E1
(1608926676.980286) vcan0 244#00000004CF
(1608926676.992816) vcan0 244#00000004BD
(1608926677.005791) vcan0 244#00000004AA
(1608926677.023898) vcan0 244#0000000498
(1608926677.038187) vcan0 244#0000000486
(1608926677.053019) vcan0 244#0000000474
(1608926677.064917) vcan0 244#0000000462
(1608926677.077444) vcan0 244#0000000450
(1608926677.090974) vcan0 244#000000043E
(1608926677.108963) vcan0 244#000000042C
(1608926677.121427) vcan0 244#000000041A
(1608926677.121567) vcan0 188#00000000
(1608926677.133434) vcan0 244#0000000407
(1608926677.149505) vcan0 244#00000003F5
(1608926677.164389) vcan0 244#00000003E3
(1608926677.178859) vcan0 244#00000003D1
(1608926677.191955) vcan0 244#00000003BF
(1608926677.204090) vcan0 244#00000003AD
(1608926677.217614) vcan0 244#000000039B
(1608926677.229959) vcan0 244#0000000389
(1608926677.243887) vcan0 244#0000000377
(1608926677.256201) vcan0 244#0000000365
(1608926677.268317) vcan0 244#0000000352
(1608926677.281194) vcan0 244#0000000340
(1608926677.294173) vcan0 244#000000032E
(1608926677.307943) vcan0 244#000000031C
(1608926677.320593) vcan0 244#000000030A
(1608926677.338126) vcan0 244#00000002F8
(1608926677.351183) vcan0 244#00000002E6
(1608926677.361908) vcan0 244#00000002D4
(1608926677.374783) vcan0 244#00000002C2
(1608926677.388392) vcan0 244#00000002AF
(1608926677.401141) vcan0 244#000000029D
(1608926677.414678) vcan0 244#000000028B
(1608926677.426787) vcan0 244#0000000279
(1608926677.439069) vcan0 244#0000000267
(1608926677.451587) vcan0 244#0000000255
(1608926677.465164) vcan0 244#0000000243
(1608926677.478667) vcan0 244#0000000231
(1608926677.496258) vcan0 244#000000021F
(1608926677.508874) vcan0 244#000000020D
(1608926677.521829) vcan0 244#00000001FA
(1608926677.536436) vcan0 244#00000001E8
(1608926677.549753) vcan0 244#00000001D6
(1608926677.562240) vcan0 244#00000001C4
(1608926677.574655) vcan0 244#00000001B2
(1608926677.588231) vcan0 244#00000001A0
(1608926677.601910) vcan0 244#000000018E
(1608926677.616497) vcan0 244#000000017C
(1608926677.630431) vcan0 244#000000016A
(1608926677.630561) vcan0 188#00000000
(1608926677.642861) vcan0 244#0000000157
(1608926677.656056) vcan0 244#0000000145
(1608926677.668476) vcan0 244#0000000133
(1608926677.681134) vcan0 244#0000000121
(1608926677.693826) vcan0 244#000000010F
(1608926677.706551) vcan0 244#00000000FD
(1608926677.719336) vcan0 244#00000000EB
(1608926677.732079) vcan0 244#00000000D9
(1608926677.744946) vcan0 244#00000000C7
(1608926677.760570) vcan0 244#00000000B5
(1608926677.775364) vcan0 244#00000000A2
(1608926677.789743) vcan0 244#0000000124
(1608926677.803111) vcan0 244#0000000119
(1608926677.816107) vcan0 244#000000014C
(1608926677.830753) vcan0 244#0000000110
(1608926677.842352) vcan0 244#00000001AB
(1608926677.856006) vcan0 244#0000000140
(1608926677.869584) vcan0 244#0000000167
(1608926677.881474) vcan0 244#000000012F
(1608926677.894614) vcan0 244#00000001EA
(1608926677.908144) vcan0 244#00000001EB
(1608926677.921136) vcan0 244#00000001A6
(1608926677.937236) vcan0 244#00000001D2
(1608926677.950545) vcan0 244#0000000155
(1608926677.962782) vcan0 244#0000000116
(1608926677.976140) vcan0 244#000000019F
(1608926677.990530) vcan0 244#000000018F
(1608926678.008073) vcan0 244#000000015C
(1608926678.021262) vcan0 244#000000013E
(1608926678.033429) vcan0 244#00000001AD
(1608926678.046909) vcan0 244#0000000151
(1608926678.060111) vcan0 244#0000000104
(1608926678.071985) vcan0 244#00000001F2
(1608926678.083847) vcan0 244#000000014E
(1608926678.096437) vcan0 244#00000001C8
(1608926678.107851) vcan0 244#000000012C
(1608926678.121666) vcan0 244#00000001B4
(1608926678.133549) vcan0 244#0000000156
(1608926678.141434) vcan0 188#00000000
(1608926678.148586) vcan0 244#000000019E
(1608926678.162507) vcan0 244#000000016B
(1608926678.177133) vcan0 244#0000000189
(1608926678.190641) vcan0 244#000000019D
(1608926678.202156) vcan0 244#00000001AB
(1608926678.214529) vcan0 244#000000013E
(1608926678.226125) vcan0 244#0000000186
(1608926678.237962) vcan0 244#0000000158
(1608926678.251533) vcan0 244#0000000186
(1608926678.264476) vcan0 244#00000001E2
(1608926678.278343) vcan0 244#00000001DB
(1608926678.291776) vcan0 244#00000001D2
(1608926678.304371) vcan0 244#00000001E8
(1608926678.316318) vcan0 244#0000000162
(1608926678.328870) vcan0 244#0000000114
(1608926678.341845) vcan0 244#0000000156
(1608926678.355350) vcan0 244#00000001D4
(1608926678.368556) vcan0 244#0000000146
(1608926678.380654) vcan0 244#0000000192
(1608926678.394633) vcan0 244#000000017F
(1608926678.409006) vcan0 244#0000000140
(1608926678.423402) vcan0 244#00000001ED
(1608926678.437327) vcan0 244#0000000147
(1608926678.451283) vcan0 244#00000001AE
(1608926678.464014) vcan0 244#000000018E
(1608926678.476738) vcan0 244#00000001D6
(1608926678.489315) vcan0 244#0000000199
(1608926678.502639) vcan0 244#0000000173
(1608926678.515574) vcan0 244#000000011E
(1608926678.528405) vcan0 244#000000016A
(1608926678.541244) vcan0 244#00000001E5
(1608926678.553858) vcan0 244#0000000159
(1608926678.566661) vcan0 244#0000000171
(1608926678.580414) vcan0 244#000000010A
(1608926678.592863) vcan0 244#0000000193
(1608926678.604843) vcan0 244#0000000138
(1608926678.616971) vcan0 244#0000000166
(1608926678.629068) vcan0 244#0000000135
